Freq.	V(out)
1.00000000000000e+01	6.57321049032060e-03,-7.25733880934788e-05
1.00695555005672e+01	6.57319736441841e-03,-7.23412927536523e-05
1.01395947979003e+01	6.57318439696528e-03,-7.21126676568021e-05
1.02101212570719e+01	6.57317158547251e-03,-7.18875019274581e-05
1.02811382665607e+01	6.57315892748167e-03,-7.16657848540627e-05
1.03526492384138e+01	6.57314642056292e-03,-7.14475058884907e-05
1.04246576084112e+01	6.57313406231628e-03,-7.12326546456048e-05
1.04971668362307e+01	6.57312185036952e-03,-7.10212209027837e-05
1.05701804056138e+01	6.57310978237863e-03,-7.08131945994838e-05
1.06437018245336e+01	6.57309785602753e-03,-7.06085658368002e-05
1.07177346253629e+01	6.57308606902705e-03,-7.04073248770254e-05
1.07922823650443e+01	6.57307441911449e-03,-7.02094621432224e-05
1.08673486252606e+01	6.57306290405382e-03,-7.00149682188114e-05
1.09429370126074e+01	6.57305152163450e-03,-6.98238338471471e-05
1.10190511587661e+01	6.57304026967174e-03,-6.96360499311204e-05
1.10956947206785e+01	6.57302914600545e-03,-6.94516075327504e-05
1.11728713807222e+01	6.57301814850041e-03,-6.92704978727984e-05
1.12505848468881e+01	6.57300727504549e-03,-6.90927123303779e-05
1.13288388529580e+01	6.57299652355303e-03,-6.89182424425718e-05
1.14076371586842e+01	6.57298589195912e-03,-6.87470799040680e-05
1.14869835499704e+01	6.57297537822300e-03,-6.85792165667916e-05
1.15668818390529e+01	6.57296498032566e-03,-6.84146444395343e-05
1.16473358646846e+01	6.57295469627142e-03,-6.82533556876243e-05
1.17283494923188e+01	6.57294452408549e-03,-6.80953426325589e-05
1.18099266142953e+01	6.57293446181491e-03,-6.79405977516797e-05
1.18920711500272e+01	6.57292450752800e-03,-6.77891136778393e-05
1.19747870461893e+01	6.57291465931340e-03,-6.76408831990710e-05
1.20580782769076e+01	6.57290491528024e-03,-6.74958992582754e-05
1.21419488439505e+01	6.57289527355760e-03,-6.73541549529084e-05
1.22264027769207e+01	6.57288573229433e-03,-6.72156435346777e-05
1.23114441334492e+01	6.57287628965831e-03,-6.70803584092426e-05
1.23970769993899e+01	6.57286694383632e-03,-6.69482931359245e-05
1.24833054890161e+01	6.57285769303408e-03,-6.68194414274273e-05
1.25701337452183e+01	6.57284853547499e-03,-6.66937971495512e-05
1.26575659397028e+01	6.57283946940088e-03,-6.65713543209329e-05
1.27456062731927e+01	6.57283049307047e-03,-6.64521071127708e-05
1.28342589756291e+01	6.57282160476042e-03,-6.63360498485810e-05
1.29235283063750e+01	6.57281280276369e-03,-6.62231770039354e-05
1.30134185544194e+01	6.57280408539021e-03,-6.61134832062281e-05
1.31039340385837e+01	6.57279545096586e-03,-6.60069632344320e-05
1.31950791077290e+01	6.57278689783243e-03,-6.59036120188715e-05
1.32868581409652e+01	6.57277842434737e-03,-6.58034246410017e-05
1.33792755478612e+01	6.57277002888353e-03,-6.57063963331919e-05
1.34723357686569e+01	6.57276170982848e-03,-6.56125224785126e-05
1.35660432744768e+01	6.57275346558483e-03,-6.55217986105406e-05
1.36604025675440e+01	6.57274529456879e-03,-6.54342204131500e-05
1.37554181813975e+01	6.57273719521158e-03,-6.53497837203426e-05
1.38510946811093e+01	6.57272916595735e-03,-6.52684845160461e-05
1.39474366635041e+01	6.57272120526440e-03,-6.51903189339547e-05
1.40444487573800e+01	6.57271331160331e-03,-6.51152832573453e-05
1.41421356237310e+01	6.57270548345862e-03,-6.50433739189344e-05
1.42405019559708e+01	6.57269771932620e-03,-6.49745875007007e-05
1.43395524801583e+01	6.57269001771544e-03,-6.49089207337603e-05
1.44392919552250e+01	6.57268237714657e-03,-6.48463704982026e-05
1.45397251732032e+01	6.57267479615240e-03,-6.47869338229747e-05
1.46408569594563e+01	6.57266727327683e-03,-6.47306078857423e-05
1.47426921729111e+01	6.57265980707481e-03,-6.46773900127698e-05
1.48452357062905e+01	6.57265239611212e-03,-6.46272776788078e-05
1.49484924863494e+01	6.57264503896551e-03,-6.45802685069879e-05
1.50524674741107e+01	6.57263773422197e-03,-6.45363602687193e-05
1.51571656651040e+01	6.57263048047806e-03,-6.44955508835883e-05
1.52625920896057e+01	6.57262327634063e-03,-6.44578384192830e-05
1.53687518128802e+01	6.57261612042584e-03,-6.44232210915043e-05
1.54756499354240e+01	6.57260901135919e-03,-6.43916972638955e-05
1.55832915932101e+01	6.57260194777510e-03,-6.43632654479735e-05
1.56916819579351e+01	6.57259492831671e-03,-6.43379243030697e-05
1.58008262372676e+01	6.57258795163567e-03,-6.43156726362764e-05
1.59107296750984e+01	6.57258101639182e-03,-6.42965094024001e-05
1.60213975517925e+01	6.57257412125274e-03,-6.42804337039187e-05
1.61328351844426e+01	6.57256726489411e-03,-6.42674447909555e-05
1.62450479271248e+01	6.57256044599894e-03,-6.42575420612481e-05
1.63580411711557e+01	6.57255366325707e-03,-6.42507250601244e-05
1.64718203453515e+01	6.57254691536572e-03,-6.42469934805008e-05
1.65863909162889e+01	6.57254020102844e-03,-6.42463471628653e-05
1.67017583885675e+01	6.57253351895555e-03,-6.42487860952873e-05
1.68179283050744e+01	6.57252686786315e-03,-6.42543104134172e-05
1.69349062472506e+01	6.57252024647396e-03,-6.42629204005120e-05
1.70526978353592e+01	6.57251365351555e-03,-6.42746164874407e-05
1.71713087287552e+01	6.57250708772156e-03,-6.42893992527277e-05
1.72907446261574e+01	6.57250054783063e-03,-6.43072694225794e-05
1.74110112659226e+01	6.57249403258628e-03,-6.43282278709271e-05
1.75321144263208e+01	6.57248754073684e-03,-6.43522756194773e-05
1.76540599258132e+01	6.57248107103551e-03,-6.43794138377700e-05
1.77768536233315e+01	6.57247462223877e-03,-6.44096438432282e-05
1.79005014185596e+01	6.57246819310816e-03,-6.44429671012462e-05
1.80250092522167e+01	6.57246178240848e-03,-6.44793852252512e-05
1.81503831063433e+01	6.57245538890775e-03,-6.45188999767866e-05
1.82766290045881e+01	6.57244901137821e-03,-6.45615132656158e-05
1.84037530124976e+01	6.57244264859420e-03,-6.46072271497986e-05
1.85317612378075e+01	6.57243629933367e-03,-6.46560438358131e-05
1.86606598307363e+01	6.57242996237643e-03,-6.47079656786504e-05
1.87904549842804e+01	6.57242363650520e-03,-6.47629951819444e-05
1.89211529345120e+01	6.57241732050458e-03,-6.48211349980895e-05
1.90527599608789e+01	6.57241101316121e-03,-6.48823879283733e-05
1.91852823865054e+01	6.57240471326321e-03,-6.49467569231141e-05
1.93187265784970e+01	6.57239841960041e-03,-6.50142450818079e-05
1.94530989482458e+01	6.57239213096331e-03,-6.50848556532738e-05
1.95884059517387e+01	6.57238584614407e-03,-6.51585920358243e-05
1.97246540898673e+01	6.57237956393477e-03,-6.52354577774166e-05
1.98618499087409e+01	6.57237328312878e-03,-6.53154565758409e-05
2.00000000000001e+01	6.57236700251920e-03,-6.53985922788867e-05
2.01391110011345e+01	6.57236072089968e-03,-6.54848688845405e-05
2.02791895958007e+01	6.57235443706289e-03,-6.55742905411666e-05
2.04202425141440e+01	6.57234814980182e-03,-6.56668615477215e-05
2.05622765331215e+01	6.57234185790840e-03,-6.57625863539530e-05
2.07052984768277e+01	6.57233556017375e-03,-6.58614695606163e-05
2.08493152168226e+01	6.57232925538797e-03,-6.59635159196993e-05
2.09943336724615e+01	6.57232294233981e-03,-6.60687303346480e-05
2.11403608112278e+01	6.57231661981595e-03,-6.61771178605983e-05
2.12874036490674e+01	6.57231028660223e-03,-6.62886837046336e-05
2.14354692507260e+01	6.57230394148127e-03,-6.64034332260136e-05
2.15845647300887e+01	6.57229758323424e-03,-6.65213719364506e-05
2.17346972505213e+01	6.57229121063961e-03,-6.66425055003637e-05
2.18858740252150e+01	6.57228482247292e-03,-6.67668397351515e-05
2.20381023175324e+01	6.57227841750679e-03,-6.68943806114705e-05
2.21913894413571e+01	6.57227199451067e-03,-6.70251342535226e-05
2.23457427614446e+01	6.57226555225047e-03,-6.71591069393458e-05
2.25011696937764e+01	6.57225908948837e-03,-6.72963051011138e-05
2.26576777059162e+01	6.57225260498284e-03,-6.74367353254467e-05
2.28152743173687e+01	6.57224609748791e-03,-6.75804043537199e-05
2.29739670999409e+01	6.57223956575313e-03,-6.77273190823873e-05
2.31337636781060e+01	6.57223300852396e-03,-6.78774865633168e-05
2.32946717293693e+01	6.57222642454003e-03,-6.80309140041103e-05
2.34566989846378e+01	6.57221981253686e-03,-6.81876087684679e-05
2.36198532285908e+01	6.57221317124380e-03,-6.83475783765187e-05
2.37841423000546e+01	6.57220649938496e-03,-6.85108305051906e-05
2.39495740923788e+01	6.57219979567846e-03,-6.86773729885715e-05
2.41161565538154e+01	6.57219305883620e-03,-6.88472138182797e-05
2.42838976879012e+01	6.57218628756406e-03,-6.90203611438499e-05
2.44528055538416e+01	6.57217948056079e-03,-6.91968232731101e-05
2.46228882668986e+01	6.57217263651891e-03,-6.93766086725888e-05
2.47941539987800e+01	6.57216575412333e-03,-6.95597259679041e-05
2.49666109780325e+01	6.57215883205170e-03,-6.97461839441798e-05
2.51402674904368e+01	6.57215186897423e-03,-6.99359915464622e-05
2.53151318794059e+01	6.57214486355311e-03,-7.01291578801411e-05
2.54912125463855e+01	6.57213781444232e-03,-7.03256922113818e-05
2.56685179512583e+01	6.57213072028779e-03,-7.05256039675683e-05
2.58470566127501e+01	6.57212357972630e-03,-7.07289027377408e-05
2.60268371088389e+01	6.57211639138606e-03,-7.09355982730582e-05
2.62078680771675e+01	6.57210915388610e-03,-7.11457004872566e-05
2.63901582154582e+01	6.57210186583586e-03,-7.13592194571161e-05
2.65737162819305e+01	6.57209452583513e-03,-7.15761654229393e-05
2.67585510957225e+01	6.57208713247379e-03,-7.17965487890364e-05
2.69446715373141e+01	6.57207968433126e-03,-7.20203801242127e-05
2.71320865489537e+01	6.57207217997691e-03,-7.22476701622761e-05
2.73208051350882e+01	6.57206461796884e-03,-7.24784298025340e-05
2.75108363627952e+01	6.57205699685441e-03,-7.27126701103152e-05
2.77021893622188e+01	6.57204931516911e-03,-7.29504023174853e-05
2.78948733270084e+01	6.57204157143754e-03,-7.31916378229877e-05
2.80888975147603e+01	6.57203376417200e-03,-7.34363881933720e-05
2.82842712474622e+01	6.57202589187229e-03,-7.36846651633369e-05
2.84810039119418e+01	6.57201795302646e-03,-7.39364806362990e-05
2.86791049603169e+01	6.57200994610881e-03,-7.41918466849305e-05
2.88785839104503e+01	6.57200186958175e-03,-7.44507755517562e-05
2.90794503464066e+01	6.57199372189328e-03,-7.47132796497014e-05
2.92817139189129e+01	6.57198550147825e-03,-7.49793715626970e-05
2.94853843458224e+01	6.57197720675752e-03,-7.52490640462641e-05
2.96904714125813e+01	6.57196883613750e-03,-7.55223700281136e-05
2.98969849726991e+01	6.57196038801034e-03,-7.57993026087590e-05
3.01049349482217e+01	6.57195186075290e-03,-7.60798750621249e-05
3.03143313302083e+01	6.57194325272735e-03,-7.63641008361819e-05
3.05251841792116e+01	6.57193456227981e-03,-7.66519935535662e-05
3.07375036257606e+01	6.57192578774081e-03,-7.69435670122297e-05
3.09512998708482e+01	6.57191692742495e-03,-7.72388351860859e-05
3.11665831864204e+01	6.57190797963020e-03,-7.75378122256648e-05
3.13833639158704e+01	6.57189894263746e-03,-7.78405124587734e-05
3.16016524745355e+01	6.57188981471106e-03,-7.81469503911797e-05
3.18214593501972e+01	6.57188059409737e-03,-7.84571407072796e-05
3.20427951035853e+01	6.57187127902526e-03,-7.87710982707962e-05
3.22656703688855e+01	6.57186186770544e-03,-7.90888381254726e-05
3.24900958542498e+01	6.57185235832994e-03,-7.94103754957753e-05
3.27160823423117e+01	6.57184274907211e-03,-7.97357257876113e-05
3.29436406907034e+01	6.57183303808648e-03,-8.00649045890538e-05
3.31727818325781e+01	6.57182322350723e-03,-8.03979276710557e-05
3.34035167771352e+01	6.57181330344956e-03,-8.07348109882117e-05
3.36358566101490e+01	6.57180327600773e-03,-8.10755706794846e-05
3.38698124945015e+01	6.57179313925562e-03,-8.14202230689711e-05
3.41053956707187e+01	6.57178289124642e-03,-8.17687846666664e-05
3.43426174575106e+01	6.57177253001136e-03,-8.21212721692262e-05
3.45814892523151e+01	6.57176205356075e-03,-8.24777024607643e-05
3.48220225318454e+01	6.57175145988198e-03,-8.28380926136202e-05
3.50642288526419e+01	6.57174074694044e-03,-8.32024598891752e-05
3.53081198516267e+01	6.57172991267825e-03,-8.35708217386461e-05
3.55537072466633e+01	6.57171895501502e-03,-8.39431958039141e-05
3.58010028371194e+01	6.57170787184566e-03,-8.43195999183274e-05
3.60500185044337e+01	6.57169666104162e-03,-8.47000521075509e-05
3.63007662126869e+01	6.57168532044975e-03,-8.50845705904010e-05
3.65532580091765e+01	6.57167384789180e-03,-8.54731737796912e-05
3.68075060249955e+01	6.57166224116452e-03,-8.58658802830970e-05
3.70635224756154e+01	6.57165049803887e-03,-8.62627089040208e-05
3.73213196614728e+01	6.57163861625903e-03,-8.66636786424558e-05
3.75809099685610e+01	6.57162659354343e-03,-8.70688086958934e-05
3.78423058690244e+01	6.57161442758313e-03,-8.74781184601980e-05
3.81055199217581e+01	6.57160211604152e-03,-8.78916275305143e-05
3.83705647730111e+01	6.57158965655406e-03,-8.83093557021769e-05
3.86374531569944e+01	6.57157704672819e-03,-8.87313229716383e-05
3.89061978964920e+01	6.57156428414220e-03,-8.91575495373882e-05
3.91768119034777e+01	6.57155136634507e-03,-8.95880558008941e-05
3.94493081797350e+01	6.57153829085622e-03,-9.00228623675535e-05
3.97236998174820e+01	6.57152505516438e-03,-9.04619900476393e-05
4.00000000000006e+01	6.57151165672809e-03,-9.09054598572797e-05
4.02782220022694e+01	6.57149809297443e-03,-9.13532930194193e-05
4.05583791916018e+01	6.57148436129856e-03,-9.18055109648081e-05
4.08404850282884e+01	6.57147045906374e-03,-9.22621353329961e-05
4.11245530662433e+01	6.57145638360058e-03,-9.27231879733339e-05
4.14105969536557e+01	6.57144213220565e-03,-9.31886909459721e-05
4.16986304336455e+01	6.57142770214286e-03,-9.36586665229074e-05
4.19886673449233e+01	6.57141309064133e-03,-9.41331371889907e-05
4.22807216224559e+01	6.57139829489546e-03,-9.46121256429737e-05
4.25748072981351e+01	6.57138331206409e-03,-9.50956547985540e-05
4.28709385014524e+01	6.57136813927042e-03,-9.55837477854387e-05
4.31691294601778e+01	6.57135277360105e-03,-9.60764279504072e-05
4.34693945010430e+01	6.57133721210585e-03,-9.65737188583920e-05
4.37717480504303e+01	6.57132145179696e-03,-9.70756442935621e-05
4.40762046350651e+01	6.57130548964836e-03,-9.75822282604177e-05
4.43827788827145e+01	6.57128932259529e-03,-9.80934949848976e-05
4.46914855228895e+01	6.57127294753369e-03,-9.86094689154937e-05
4.50023393875531e+01	6.57125636131997e-03,-9.91301747243818e-05
4.53153554118327e+01	6.57123956076969e-03,-9.96556373085459e-05
4.56305486347377e+01	6.57122254265709e-03,-1.00185881790922e-04
4.59479341998822e+01	6.57120530371510e-03,-1.00720933521564e-04
4.62675273562123e+01	6.57118784063426e-03,-1.01260818078801e-04
4.65893434587390e+01	6.57117015006205e-03,-1.01805561270405e-04
4.69133979692759e+01	6.57115222860231e-03,-1.02355189134782e-04
4.72397064571820e+01	6.57113407281462e-03,-1.02909727942160e-04
4.75682846001096e+01	6.57111567921378e-03,-1.03469204195800e-04
4.78991481847580e+01	6.57109704426862e-03,-1.04033644633194e-04
4.82323131076312e+01	6.57107816440223e-03,-1.04603076227307e-04
4.85677953758027e+01	6.57105903599019e-03,-1.05177526187793e-04
4.89056111076836e+01	6.57103965536077e-03,-1.05757021962246e-04
4.92457765337975e+01	6.57102001879406e-03,-1.06341591237462e-04
4.95883079975603e+01	6.57100012252048e-03,-1.06931261940677e-04
4.99332219560653e+01	6.57097996272136e-03,-1.07526062240868e-04
5.02805349808740e+01	6.57095953552694e-03,-1.08126020550019e-04
5.06302637588121e+01	6.57093883701679e-03,-1.08731165524422e-04
5.09824250927714e+01	6.57091786321781e-03,-1.09341526065975e-04
5.13370359025171e+01	6.57089661010469e-03,-1.09957131323505e-04
5.16941132255006e+01	6.57087507359838e-03,-1.10578010694085e-04
5.20536742176783e+01	6.57085324956548e-03,-1.11204193824370e-04
5.24157361543355e+01	6.57083113381756e-03,-1.11835710611945e-04
5.27803164309167e+01	6.57080872211028e-03,-1.12472591206677e-04
5.31474325638614e+01	6.57078601014244e-03,-1.13114866012081e-04
5.35171021914455e+01	6.57076299355559e-03,-1.13762565686702e-04
5.38893430746286e+01	6.57073966793262e-03,-1.14415721145494e-04
5.42641730979079e+01	6.57071602879745e-03,-1.15074363561222e-04
5.46416102701768e+01	6.57069207161398e-03,-1.15738524365872e-04
5.50216727255908e+01	6.57066779178481e-03,-1.16408235252058e-04
5.54043787244380e+01	6.57064318465088e-03,-1.17083528174462e-04
5.57897466540173e+01	6.57061824549087e-03,-1.17764435351279e-04
5.61777950295209e+01	6.57059296951913e-03,-1.18450989265642e-04
5.65685424949249e+01	6.57056735188605e-03,-1.19143222667115e-04
5.69620078238839e+01	6.57054138767618e-03,-1.19841168573136e-04
5.73582099206342e+01	6.57051507190816e-03,-1.20544860270525e-04
5.77571678209009e+01	6.57048839953279e-03,-1.21254331316953e-04
5.81589006928135e+01	6.57046136543283e-03,-1.21969615542461e-04
5.85634278378261e+01	6.57043396442201e-03,-1.22690747050978e-04
5.89707686916452e+01	6.57040619124346e-03,-1.23417760221831e-04
5.93809428251631e+01	6.57037804056881e-03,-1.24150689711284e-04
5.97939699453987e+01	6.57034950699816e-03,-1.24889570454106e-04
6.02098698964438e+01	6.57032058505753e-03,-1.25634437665098e-04
6.06286626604171e+01	6.57029126919905e-03,-1.26385326840688e-04
6.10503683584235e+01	6.57026155379928e-03,-1.27142273760496e-04
6.14750072515217e+01	6.57023143315835e-03,-1.27905314488932e-04
6.19025997416968e+01	6.57020090149883e-03,-1.28674485376792e-04
6.23331663728412e+01	6.57016995296440e-03,-1.29449823062875e-04
6.27667278317413e+01	6.57013858161928e-03,-1.30231364475609e-04
6.32033049490714e+01	6.57010678144659e-03,-1.31019146834680e-04
6.36429187003948e+01	6.57007454634712e-03,-1.31813207652677e-04
6.40855902071710e+01	6.57004187013909e-03,-1.32613584736765e-04
6.45313407377714e+01	6.57000874655567e-03,-1.33420316190329e-04
6.49801917085001e+01	6.56997516924454e-03,-1.34233440414670e-04
6.54321646846238e+01	6.56994113176703e-03,-1.35052996110697e-04
6.58872813814072e+01	6.56990662759597e-03,-1.35879022280617e-04
6.63455636651567e+01	6.56987165011488e-03,-1.36711558229652e-04
6.68070335542709e+01	6.56983619261685e-03,-1.37550643567764e-04
6.72717132202985e+01	6.56980024830350e-03,-1.38396318211403e-04
6.77396249890036e+01	6.56976381028278e-03,-1.39248622385227e-04
6.82107913414379e+01	6.56972687156818e-03,-1.40107596623871e-04
6.86852349150217e+01	6.56968942507807e-03,-1.40973281773738e-04
6.91629785046307e+01	6.56965146363326e-03,-1.41845718994744e-04
6.96440450636914e+01	6.56961297995604e-03,-1.42724949762127e-04
7.01284577052843e+01	6.56957396666894e-03,-1.43611015868248e-04
7.06162397032539e+01	6.56953441629342e-03,-1.44503959424408e-04
7.11074144933271e+01	6.56949432124779e-03,-1.45403822862662e-04
7.16020056742393e+01	6.56945367384666e-03,-1.46310648937668e-04
7.21000370088680e+01	6.56941246629900e-03,-1.47224480728529e-04
7.26015324253744e+01	6.56937069070633e-03,-1.48145361640645e-04
7.31065160183536e+01	6.56932833906210e-03,-1.49073335407599e-04
7.36150120499916e+01	6.56928540324954e-03,-1.50008446093025e-04
7.41270449512313e+01	6.56924187503984e-03,-1.50950738092500e-04
7.46426393229462e+01	6.56919774609140e-03,-1.51900256135457e-04
7.51618199371226e+01	6.56915300794794e-03,-1.52857045287101e-04
7.56846117380493e+01	6.56910765203628e-03,-1.53821150950316e-04
7.62110398435167e+01	6.56906166966569e-03,-1.54792618867628e-04
7.67411295460228e+01	6.56901505202551e-03,-1.55771495123134e-04
7.72749063139893e+01	6.56896779018382e-03,-1.56757826144477e-04
7.78123957929846e+01	6.56891987508581e-03,-1.57751658704808e-04
7.83536238069559e+01	6.56887129755154e-03,-1.58753039924763e-04
7.88986163594705e+01	6.56882204827500e-03,-1.59762017274475e-04
7.94473996349646e+01	6.56877211782150e-03,-1.60778638575556e-04
8.00000000000018e+01	6.56872149662671e-03,-1.61802952003134e-04
8.05564440045393e+01	6.56867017499398e-03,-1.62835006087857e-04
8.11167583832042e+01	6.56861814309341e-03,-1.63874849717958e-04
8.16809700565773e+01	6.56856539095907e-03,-1.64922532141276e-04
8.22491061324872e+01	6.56851190848803e-03,-1.65978102967339e-04
8.28211939073121e+01	6.56845768543752e-03,-1.67041612169416e-04
8.33972608672916e+01	6.56840271142404e-03,-1.68113110086619e-04
8.39773346898473e+01	6.56834697591984e-03,-1.69192647425964e-04
8.45614432449124e+01	6.56829046825318e-03,-1.70280275264521e-04
8.51496145962708e+01	6.56823317760402e-03,-1.71376045051482e-04
8.57418770029054e+01	6.56817509300328e-03,-1.72480008610313e-04
8.63382589203562e+01	6.56811620333053e-03,-1.73592218140883e-04
