Freq.	-V(in)/I(Vsource)	V(out)
1.00000000000000e+01	3.33292900049517e+06,-3.40971130294088e+03	9.90673090648446e-01,1.60666906566210e-02
1.00695555005672e+01	3.33292896882028e+06,-3.42361575096588e+03	9.90676608050813e-01,1.59557652479168e-02
1.01395947979003e+01	3.33292893673395e+06,-3.43768468505312e+03	9.90680077052059e-01,1.58456049129237e-02
1.02101212570719e+01	3.33292890423000e+06,-3.45191878445495e+03	9.90683498317840e-01,1.57362043903826e-02
1.02811382665607e+01	3.33292887130220e+06,-3.46631873083216e+03	9.90686872504769e-01,1.56275584548946e-02
1.03526492384138e+01	3.33292883794422e+06,-3.48088521788896e+03	9.90690200260296e-01,1.55196619166800e-02
1.04246576084112e+01	3.33292880414963e+06,-3.49561894535112e+03	9.90693482223141e-01,1.54125096213461e-02
1.04971668362307e+01	3.33292876991196e+06,-3.51052062137471e+03	9.90696719023105e-01,1.53060964496483e-02
1.05701804056138e+01	3.33292873522462e+06,-3.52559096134170e+03	9.90699911281360e-01,1.52004173172586e-02
1.06437018245336e+01	3.33292870008093e+06,-3.54083068785997e+03	9.90703059610646e-01,1.50954671745349e-02
1.07177346253629e+01	3.33292866447416e+06,-3.55624053558077e+03	9.90706164615159e-01,1.49912410062870e-02
1.07922823650443e+01	3.33292862839746e+06,-3.57182124276814e+03	9.90709226890853e-01,1.48877338315505e-02
1.08673486252606e+01	3.33292859184388e+06,-3.58757356093386e+03	9.90712247025483e-01,1.47849407033569e-02
1.09429370126074e+01	3.33292855480642e+06,-3.60349824158932e+03	9.90715225598674e-01,1.46828567085079e-02
1.10190511587661e+01	3.33292851727794e+06,-3.61959605671991e+03	9.90718163182187e-01,1.45814769673514e-02
1.10956947206785e+01	3.33292847925124e+06,-3.63586777710623e+03	9.90721060339827e-01,1.44807966335558e-02
1.11728713807222e+01	3.33292844071901e+06,-3.65231418075473e+03	9.90723917627756e-01,1.43808108938904e-02
1.12505848468881e+01	3.33292840167384e+06,-3.66893606132832e+03	9.90726735594372e-01,1.42815149680009e-02
1.13288388529580e+01	3.33292836210823e+06,-3.68573421610259e+03	9.90729514780604e-01,1.41829041081933e-02
1.14076371586842e+01	3.33292832201459e+06,-3.70270945198771e+03	9.90732255719917e-01,1.40849735992136e-02
1.14869835499704e+01	3.33292828138519e+06,-3.71986258552839e+03	9.90734958938492e-01,1.39877187580328e-02
1.15668818390529e+01	3.33292824021223e+06,-3.73719444410827e+03	9.90737624955214e-01,1.38911349336291e-02
1.16473358646846e+01	3.33292819848780e+06,-3.75470585511051e+03	9.90740254281915e-01,1.37952175067764e-02
1.17283494923188e+01	3.33292815620389e+06,-3.77239766037029e+03	9.90742847423267e-01,1.36999618898284e-02
1.18099266142953e+01	3.33292811335236e+06,-3.79027071376606e+03	9.90745404877114e-01,1.36053635265106e-02
1.18920711500272e+01	3.33292806992498e+06,-3.80832586797138e+03	9.90747927134453e-01,1.35114178917080e-02
1.19747870461893e+01	3.33292802591340e+06,-3.82656399613369e+03	9.90750414679456e-01,1.34181204912563e-02
1.20580782769076e+01	3.33292798130917e+06,-3.84498597260427e+03	9.90752867989677e-01,1.33254668617349e-02
1.21419488439505e+01	3.33292793610371e+06,-3.86359268136886e+03	9.90755287536130e-01,1.32334525702614e-02
1.22264027769207e+01	3.33292789028834e+06,-3.88238501484329e+03	9.90757673783351e-01,1.31420732142856e-02
1.23114441334492e+01	3.33292784385424e+06,-3.90136388230407e+03	9.90760027189411e-01,1.30513244213853e-02
1.23970769993899e+01	3.33292779679251e+06,-3.92053018820965e+03	9.90762348206192e-01,1.29612018490666e-02
1.24833054890161e+01	3.33292774909409e+06,-3.93988485869663e+03	9.90764637279300e-01,1.28717011845600e-02
1.25701337452183e+01	3.33292770074981e+06,-3.95942882110539e+03	9.90766894848218e-01,1.27828181446221e-02
1.26575659397028e+01	3.33292765175038e+06,-3.97916301361508e+03	9.90769121346428e-01,1.26945484753371e-02
1.27456062731927e+01	3.33292760208640e+06,-3.99908838644798e+03	9.90771317201375e-01,1.26068879519184e-02
1.28342589756291e+01	3.33292755174830e+06,-4.01920589705196e+03	9.90773482834712e-01,1.25198323785145e-02
1.29235283063750e+01	3.33292750072643e+06,-4.03951651130487e+03	9.90775618662211e-01,1.24333775880121e-02
1.30134185544194e+01	3.33292744901097e+06,-4.06002120110579e+03	9.90777725094010e-01,1.23475194418448e-02
1.31039340385837e+01	3.33292739659198e+06,-4.08072095882747e+03	9.90779802534534e-01,1.22622538297987e-02
1.31950791077290e+01	3.33292734345940e+06,-4.10161677322884e+03	9.90781851382730e-01,1.21775766698233e-02
1.32868581409652e+01	3.33292728960300e+06,-4.12270964992937e+03	9.90783872031945e-01,1.20934839078395e-02
1.33792755478612e+01	3.33292723501245e+06,-4.14400060297843e+03	9.90785864870197e-01,1.20099715175531e-02
1.34723357686569e+01	3.33292717967723e+06,-4.16549065846840e+03	9.90787830280198e-01,1.19270355002668e-02
1.35660432744768e+01	3.33292712358674e+06,-4.18718084008213e+03	9.90789768639304e-01,1.18446718846926e-02
1.36604025675440e+01	3.33292706673017e+06,-4.20907219799796e+03	9.90791680319740e-01,1.17628767267687e-02
1.37554181813975e+01	3.33292700909662e+06,-4.23116578118906e+03	9.90793565688599e-01,1.16816461094746e-02
1.38510946811093e+01	3.33292695067499e+06,-4.25346264946716e+03	9.90795425107918e-01,1.16009761426485e-02
1.39474366635041e+01	3.33292689145407e+06,-4.27596387830004e+03	9.90797258934808e-01,1.15208629628070e-02
1.40444487573800e+01	3.33292683142247e+06,-4.29867054074587e+03	9.90799067521362e-01,1.14413027329625e-02
1.41421356237310e+01	3.33292677056866e+06,-4.32158373635821e+03	9.90800851214961e-01,1.13622916424467e-02
1.42405019559708e+01	3.33292670888093e+06,-4.34470456348537e+03	9.90802610358056e-01,1.12838259067301e-02
1.43395524801583e+01	3.33292664634744e+06,-4.36803413131413e+03	9.90804345288544e-01,1.12059017672478e-02
1.44392919552250e+01	3.33292658295616e+06,-4.39157356468721e+03	9.90806056339586e-01,1.11285154912218e-02
1.45397251732032e+01	3.33292651869492e+06,-4.41532398483326e+03	9.90807743839763e-01,1.10516633714868e-02
1.46408569594563e+01	3.33292645355135e+06,-4.43928654670248e+03	9.90809408113169e-01,1.09753417263180e-02
1.47426921729111e+01	3.33292638751297e+06,-4.46346238597408e+03	9.90811049479390e-01,1.08995468992569e-02
1.48452357062905e+01	3.33292632056704e+06,-4.48785267927501e+03	9.90812668253679e-01,1.08242752589422e-02
1.49484924863494e+01	3.33292625270073e+06,-4.51245858757431e+03	9.90814264746913e-01,1.07495231989382e-02
1.50524674741107e+01	3.33292618390098e+06,-4.53728129833624e+03	9.90815839265739e-01,1.06752871375670e-02
1.51571656651040e+01	3.33292611415458e+06,-4.56232200143272e+03	9.90817392112495e-01,1.06015635177389e-02
1.52625920896057e+01	3.33292604344811e+06,-4.58758190118707e+03	9.90818923585445e-01,1.05283488067878e-02
1.53687518128802e+01	3.33292597176799e+06,-4.61306221396526e+03	9.90820433978713e-01,1.04556394963043e-02
1.54756499354240e+01	3.33292589910045e+06,-4.63876415733648e+03	9.90821923582395e-01,1.03834321019714e-02
1.55832915932101e+01	3.33292582543151e+06,-4.66468897175186e+03	9.90823392682592e-01,1.03117231634011e-02
1.56916819579351e+01	3.33292575074702e+06,-4.69083790368324e+03	9.90824841561422e-01,1.02405092439712e-02
1.58008262372676e+01	3.33292567503264e+06,-4.71721220080560e+03	9.90826270497230e-01,1.01697869306657e-02
1.59107296750984e+01	3.33292559827379e+06,-4.74381314210641e+03	9.90827679764415e-01,1.00995528339123e-02
1.60213975517925e+01	3.33292552045576e+06,-4.77064198971066e+03	9.90829069633680e-01,1.00298035874248e-02
1.61328351844426e+01	3.33292544156354e+06,-4.79770005391697e+03	9.90830440371949e-01,9.96053584804409e-03
1.62450479271248e+01	3.33292536158201e+06,-4.82498861852647e+03	9.90831792242532e-01,9.89174629558134e-03
1.63580411711557e+01	3.33292528049579e+06,-4.85250899865260e+03	9.90833125505067e-01,9.82343163266148e-03
1.64718203453515e+01	3.33292519828930e+06,-4.88026251422498e+03	9.90834440415648e-01,9.75558858456843e-03
1.65863909162889e+01	3.33292511494672e+06,-4.90825050444175e+03	9.90835737226833e-01,9.68821389909083e-03
1.67017583885675e+01	3.33292503045205e+06,-4.93647431331717e+03	9.90837016187724e-01,9.62130434636916e-03
1.68179283050744e+01	3.33292494478906e+06,-4.96493528968147e+03	9.90838277543971e-01,9.55485671874324e-03
1.69349062472506e+01	3.33292485794128e+06,-4.99363480645091e+03	9.90839521537852e-01,9.48886783060141e-03
1.70526978353592e+01	3.33292476989201e+06,-5.02257424376642e+03	9.90840748408330e-01,9.42333451823080e-03
1.71713087287552e+01	3.33292468062433e+06,-5.05175498899364e+03	9.90841958391056e-01,9.35825363966758e-03
1.72907446261574e+01	3.33292459012110e+06,-5.08117844154034e+03	9.90843151718457e-01,9.29362207454940e-03
1.74110112659226e+01	3.33292449836490e+06,-5.11084602490012e+03	9.90844328619738e-01,9.22943672396781e-03
1.75321144263208e+01	3.33292440533811e+06,-5.14075915774746e+03	9.90845489320980e-01,9.16569451032269e-03
1.76540599258132e+01	3.33292431102287e+06,-5.17091927079886e+03	9.90846634045161e-01,9.10239237717681e-03
1.77768536233315e+01	3.33292421540104e+06,-5.20132782126526e+03	9.90847763012124e-01,9.03952728911087e-03
1.79005014185596e+01	3.33292411845423e+06,-5.23198627117337e+03	9.90848876438759e-01,8.97709623158166e-03
1.80250092522167e+01	3.33292402016382e+06,-5.26289608977433e+03	9.90849974538960e-01,8.91509621077888e-03
1.81503831063433e+01	3.33292392051093e+06,-5.29405875836114e+03	9.90851057523640e-01,8.85352425348358e-03
1.82766290045881e+01	3.33292381947639e+06,-5.32547578472114e+03	9.90852125600854e-01,8.79237740692838e-03
1.84037530124976e+01	3.33292371704080e+06,-5.35714866700475e+03	9.90853178975767e-01,8.73165273865752e-03
1.85317612378075e+01	3.33292361318446e+06,-5.38907893467414e+03	9.90854217850742e-01,8.67134733638850e-03
1.86606598307363e+01	3.33292350788743e+06,-5.42126811718945e+03	9.90855242425321e-01,8.61145830787407e-03
1.87904549842804e+01	3.33292340112945e+06,-5.45371776327874e+03	9.90856252896354e-01,8.55198278076627e-03
1.89211529345120e+01	3.33292329289001e+06,-5.48642943371171e+03	9.90857249457913e-01,8.49291790247948e-03
1.90527599608789e+01	3.33292318314831e+06,-5.51940469648216e+03	9.90858232301495e-01,8.43426084005706e-03
1.91852823865054e+01	3.33292307188327e+06,-5.55264513644293e+03	9.90859201615863e-01,8.37600878003542e-03
1.93187265784970e+01	3.33292295907350e+06,-5.58615234807960e+03	9.90860157587254e-01,8.31815892831264e-03
1.94530989482458e+01	3.33292284469731e+06,-5.61992794996291e+03	9.90861100399299e-01,8.26070851001503e-03
1.95884059517387e+01	3.33292272873273e+06,-5.65397355584382e+03	9.90862030233121e-01,8.20365476936647e-03
1.97246540898673e+01	3.33292261115746e+06,-5.68829080837582e+03	9.90862947267356e-01,8.14699496955767e-03
1.98618499087409e+01	3.33292249194894e+06,-5.72288134539253e+03	9.90863851678153e-01,8.09072639261640e-03
2.00000000000001e+01	3.33292237108422e+06,-5.75774684085620e+03	9.90864743639271e-01,8.03484633927921e-03
2.01391110011345e+01	3.33292224854010e+06,-5.79288896150038e+03	9.90865623322105e-01,7.97935212886350e-03
2.02791895958007e+01	3.33292212429300e+06,-5.82830940296093e+03	9.90866490895597e-01,7.92424109913948e-03
2.04202425141440e+01	3.33292199831906e+06,-5.86400986327982e+03	9.90867346526439e-01,7.86951060620554e-03
2.05622765331215e+01	3.33292187059409e+06,-5.89999205013135e+03	9.90868190378996e-01,7.81515802436177e-03
2.07052984768277e+01	3.33292174109351e+06,-5.93625770490941e+03	9.90869022615411e-01,7.76118074598634e-03
2.08493152168226e+01	3.33292160979245e+06,-5.97280856177892e+03	9.90869843395541e-01,7.70757618141083e-03
2.09943336724615e+01	3.33292147666567e+06,-6.00964637898933e+03	9.90870652877115e-01,7.65434175879860e-03
2.11403608112278e+01	3.33292134168757e+06,-6.04677292923963e+03	9.90871451215582e-01,7.60147492402138e-03
2.12874036490674e+01	3.33292120483224e+06,-6.08418999245207e+03	9.90872238564403e-01,7.54897314053991e-03
2.14354692507260e+01	3.33292106607336e+06,-6.12189936781576e+03	9.90873015074759e-01,7.49683388928132e-03
2.15845647300887e+01	3.33292092538430e+06,-6.15990285933424e+03	9.90873780895872e-01,7.44505466852168e-03
2.17346972505213e+01	3.33292078273797e+06,-6.19820230232145e+03	9.90874536174894e-01,7.39363299376632e-03
2.18858740252150e+01	3.33292063810699e+06,-6.23679953449686e+03	9.90875281056887e-01,7.34256639763115e-03
2.20381023175324e+01	3.33292049146353e+06,-6.27569641284655e+03	9.90876015685002e-01,7.29185242972722e-03
2.21913894413571e+01	3.33292034277945e+06,-6.31489479917073e+03	9.90876740200329e-01,7.24148865654244e-03
2.23457427614446e+01	3.33292019202614e+06,-6.35439658417100e+03	9.90877454742137e-01,7.19147266132787e-03
2.25011696937764e+01	3.33292003917465e+06,-6.39420365854547e+03	9.90878159447633e-01,7.14180204398092e-03
2.26576777059162e+01	3.33291988419559e+06,-6.43431794189353e+03	9.90878854452254e-01,7.09247442093319e-03
2.28152743173687e+01	3.33291972705921e+06,-6.47474135140217e+03	9.90879539889508e-01,7.04348742503582e-03
2.29739670999409e+01	3.33291956773527e+06,-6.51547584038568e+03	9.90880215891092e-01,6.99483870544772e-03
2.31337636781060e+01	3.33291940619317e+06,-6.55652335733709e+03	9.90880882586906e-01,6.94652592752367e-03
2.32946717293693e+01	3.33291924240186e+06,-6.59788587965036e+03	9.90881540105000e-01,6.89854677270285e-03
2.34566989846378e+01	3.33291907632988e+06,-6.63956538712422e+03	9.90882188571730e-01,6.85089893839942e-03
2.36198532285908e+01	3.33291890794528e+06,-6.68156389327563e+03	9.90882828111720e-01,6.80358013789267e-03
2.37841423000546e+01	3.33291873721574e+06,-6.72388340439122e+03	9.90883458847790e-01,6.75658810021755e-03
2.39495740923788e+01	3.33291856410840e+06,-6.76652596288440e+03	9.90884080901124e-01,6.70992057005749e-03
2.41161565538154e+01	3.33291838859008e+06,-6.80949360152935e+03	9.90884694391268e-01,6.66357530763725e-03
2.42838976879012e+01	3.33291821062693e+06,-6.85278841090540e+03	9.90885299436099e-01,6.61755008861565e-03
2.44528055538416e+01	3.33291803018484e+06,-6.89641244786520e+03	9.90885896151850e-01,6.57184270397993e-03
2.46228882668986e+01	3.33291784722908e+06,-6.94036781984011e+03	9.90886484653162e-01,6.52645095994066e-03
2.47941539987800e+01	3.33291766172452e+06,-6.98465663425687e+03	9.90887065053131e-01,6.48137267782762e-03
2.49666109780325e+01	3.33291747363551e+06,-7.02928101780726e+03	9.90887637463261e-01,6.43660569398552e-03
2.51402674904368e+01	3.33291728292588e+06,-7.07424311885677e+03	9.90888201993521e-01,6.39214785967128e-03
2.53151318794059e+01	3.33291708955899e+06,-7.11954509540082e+03	9.90888758752418e-01,6.34799704095195e-03
2.54912125463855e+01	3.33291689349772e+06,-7.16518911506467e+03	9.90889307846879e-01,6.30415111860229e-03
2.56685179512583e+01	3.33291669470432e+06,-7.21117738641679e+03	9.90889849382443e-01,6.26060798800478e-03
2.58470566127501e+01	3.33291649314060e+06,-7.25751211320286e+03	9.90890383463153e-01,6.21736555904872e-03
2.60268371088389e+01	3.33291628876788e+06,-7.30419551361557e+03	9.90890910191597e-01,6.17442175603067e-03
2.62078680771675e+01	3.33291608154685e+06,-7.35122983233806e+03	9.90891429669024e-01,6.13177451755614e-03
2.63901582154582e+01	3.33291587143767e+06,-7.39861733572638e+03	9.90891941995225e-01,6.08942179644057e-03
2.65737162819305e+01	3.33291565839995e+06,-7.44636030458317e+03	9.90892447268626e-01,6.04736155961214e-03
2.67585510957225e+01	3.33291544239283e+06,-7.49446101007033e+03	9.90892945586342e-01,6.00559178801506e-03
2.69446715373141e+01	3.33291522337468e+06,-7.54292179078802e+03	9.90893437044092e-01,5.96411047651284e-03
2.71320865489537e+01	3.33291500130350e+06,-7.59174495642561e+03	9.90893921736336e-01,5.92291563379326e-03
2.73208051350882e+01	3.33291477613658e+06,-7.64093285761452e+03	9.90894399756184e-01,5.88200528227272e-03
2.75108363627952e+01	3.33291454783066e+06,-7.69048785461471e+03	9.90894871195500e-01,5.84137745800270e-03
2.77021893622188e+01	3.33291431634188e+06,-7.74041232694936e+03	9.90895336144846e-01,5.80103021057537e-03
2.78948733270084e+01	3.33291408162565e+06,-7.79070869267458e+03	9.90895794693595e-01,5.76096160303134e-03
2.80888975147603e+01	3.33291384363701e+06,-7.84137933852632e+03	9.90896246929842e-01,5.72116971176645e-03
2.82842712474622e+01	3.33291360233014e+06,-7.89242671386032e+03	9.90896692940447e-01,5.68165262644049e-03
2.84810039119418e+01	3.33291335765868e+06,-7.94385327043398e+03	9.90897132811162e-01,5.64240844988617e-03
2.86791049603169e+01	3.33291310957557e+06,-7.99566148408469e+03	9.90897566626456e-01,5.60343529801806e-03
2.88785839104503e+01	3.33291285803322e+06,-8.04785383064240e+03	9.90897994469749e-01,5.56473129974344e-03
2.90794503464066e+01	3.33291260298322e+06,-8.10043282687783e+03	9.90898416423186e-01,5.52629459687208e-03
2.92817139189129e+01	3.33291234437661e+06,-8.15340098955397e+03	9.90898832567881e-01,5.48812334402845e-03
2.94853843458224e+01	3.33291208216363e+06,-8.20676087396543e+03	9.90899242983789e-01,5.45021570856309e-03
2.96904714125813e+01	3.33291181629392e+06,-8.26051504021623e+03	9.90899647749780e-01,5.41256987046522e-03
2.98969849726991e+01	3.33291154671641e+06,-8.31466606285456e+03	9.90900046943642e-01,5.37518402227604e-03
3.01049349482217e+01	3.33291127337924e+06,-8.36921655736837e+03	9.90900440642035e-01,5.33805636900196e-03
3.03143313302083e+01	3.33291099622993e+06,-8.42416912960222e+03	9.90900828920662e-01,5.30118512802969e-03
3.05251841792116e+01	3.33291071521517e+06,-8.47952643115756e+03	9.90901211854082e-01,5.26456852904020e-03
3.07375036257606e+01	3.33291043028098e+06,-8.53529111844436e+03	9.90901589515906e-01,5.22820481392484e-03
3.09512998708482e+01	3.33291014137264e+06,-8.59146585990709e+03	9.90901961978697e-01,5.19209223670124e-03
3.11665831864204e+01	3.33290984843455e+06,-8.64805336974646e+03	9.90902329314040e-01,5.15622906342965e-03
3.13833639158704e+01	3.33290955141049e+06,-8.70505635492760e+03	9.90902691592480e-01,5.12061357213018e-03
3.16016524745355e+01	3.33290925024335e+06,-8.76247755371923e+03	9.90903048883655e-01,5.08524405270085e-03
3.18214593501972e+01	3.33290894487520e+06,-8.82031974051085e+03	9.90903401256243e-01,5.05011880683577e-03
3.20427951035853e+01	3.33290863524746e+06,-8.87858567041219e+03	9.90903748777910e-01,5.01523614794345e-03
3.22656703688855e+01	3.33290832130055e+06,-8.93727815633175e+03	9.90904091515502e-01,4.98059440106729e-03
3.24900958542498e+01	3.33290800297416e+06,-8.99640001598492e+03	9.90904429534798e-01,4.94619190280410e-03
3.27160823423117e+01	3.33290768020707e+06,-9.05595409598088e+03	9.90904762900770e-01,4.91202700122595e-03
3.29436406907034e+01	3.33290735293730e+06,-9.11594324773524e+03	9.90905091677529e-01,4.87809805580072e-03
3.31727818325781e+01	3.33290702110200e+06,-9.17637034673954e+03	9.90905415928172e-01,4.84440343731318e-03
3.34035167771352e+01	3.33290668463728e+06,-9.23723831664799e+03	9.90905735715099e-01,4.81094152778826e-03
3.36358566101490e+01	3.33290634347862e+06,-9.29855005701613e+03	9.90906051099667e-01,4.77771072041207e-03
3.38698124945015e+01	3.33290599756038e+06,-9.36030852519646e+03	9.90906362142527e-01,4.74470941945677e-03
3.41053956707187e+01	3.33290564681609e+06,-9.42251668816419e+03	9.90906668903476e-01,4.71193604020344e-03
3.43426174575106e+01	3.33290529117829e+06,-9.48517754178653e+03	9.90906971441396e-01,4.67938900886595e-03
3.45814892523151e+01	3.33290493057873e+06,-9.54829408191803e+03	9.90907269814480e-01,4.64706676251657e-03
3.48220225318454e+01	3.33290456494809e+06,-9.61186934293955e+03	9.90907564080010e-01,4.61496774901056e-03
3.50642288526419e+01	3.33290419421602e+06,-9.67590639294052e+03	9.90907854294588e-01,4.58309042691242e-03
3.53081198516267e+01	3.33290381831136e+06,-9.74040829517950e+03	9.90908140513915e-01,4.55143326542149e-03
3.55537072466633e+01	3.33290343716189e+06,-9.80537814180571e+03	9.90908422793078e-01,4.51999474429984e-03
3.58010028371194e+01	3.33290305069427e+06,-9.87081907312822e+03	9.90908701186241e-01,4.48877335379811e-03
3.60500185044337e+01	3.33290265883435e+06,-9.93673421017223e+03	9.90908975746942e-01,4.45776759458473e-03
3.63007662126869e+01	3.33290226150678e+06,-1.00031267269396e+04	9.90909246527950e-01,4.42697597767315e-03
3.65532580091765e+01	3.33290185863512e+06,-1.00699998263215e+04	9.90909513581250e-01,4.39639702435084e-03
