Freq.	-V(out)/I(Vtest)
1.00000000000000e+01	1.25611739304955e+02,-1.58795510461694e+03
1.00695555005672e+01	1.25264233017318e+02,-1.57699178486026e+03
1.01395947979003e+01	1.24921508582863e+02,-1.56610408140322e+03
1.02101212570719e+01	1.24583500233148e+02,-1.55529147424776e+03
1.02811382665607e+01	1.24250143103415e+02,-1.54455344693996e+03
1.03526492384138e+01	1.23921373220199e+02,-1.53388948654658e+03
1.04246576084112e+01	1.23597127489099e+02,-1.52329908363162e+03
1.04971668362307e+01	1.23277343682728e+02,-1.51278173223320e+03
1.05701804056138e+01	1.22961960428818e+02,-1.50233692984042e+03
1.06437018245336e+01	1.22650917198488e+02,-1.49196417737043e+03
1.07177346253629e+01	1.22344154294677e+02,-1.48166297914567e+03
1.07922823650443e+01	1.22041612840737e+02,-1.47143284287120e+03
1.08673486252606e+01	1.21743234769176e+02,-1.46127327961214e+03
1.09429370126074e+01	1.21448962810550e+02,-1.45118380377138e+03
1.10190511587661e+01	1.21158740482520e+02,-1.44116393306723e+03
1.10956947206785e+01	1.20872512079053e+02,-1.43121318851141e+03
1.11728713807222e+01	1.20590222659768e+02,-1.42133109438704e+03
1.12505848468881e+01	1.20311818039434e+02,-1.41151717822680e+03
1.13288388529580e+01	1.20037244777594e+02,-1.40177097079124e+03
1.14076371586842e+01	1.19766450168363e+02,-1.39209200604723e+03
1.14869835499704e+01	1.19499382230333e+02,-1.38247982114653e+03
1.15668818390529e+01	1.19235989696637e+02,-1.37293395640447e+03
1.16473358646846e+01	1.18976222005139e+02,-1.36345395527882e+03
1.17283494923188e+01	1.18720029288757e+02,-1.35403936434872e+03
1.18099266142953e+01	1.18467362365933e+02,-1.34468973329382e+03
1.18920711500272e+01	1.18218172731216e+02,-1.33540461487349e+03
1.19747870461893e+01	1.17972412545982e+02,-1.32618356490619e+03
1.20580782769076e+01	1.17730034629274e+02,-1.31702614224894e+03
1.21419488439505e+01	1.17490992448787e+02,-1.30793190877697e+03
1.22264027769207e+01	1.17255240111954e+02,-1.29890042936345e+03
1.23114441334492e+01	1.17022732357158e+02,-1.28993127185938e+03
1.23970769993899e+01	1.16793424545081e+02,-1.28102400707355e+03
1.24833054890161e+01	1.16567272650147e+02,-1.27217820875274e+03
1.25701337452183e+01	1.16344233252106e+02,-1.26339345356190e+03
1.26575659397028e+01	1.16124263527715e+02,-1.25466932106460e+03
1.27456062731927e+01	1.15907321242538e+02,-1.24600539370348e+03
1.28342589756291e+01	1.15693364742872e+02,-1.23740125678090e+03
1.29235283063750e+01	1.15482352947756e+02,-1.22885649843969e+03
1.30134185544194e+01	1.15274245341115e+02,-1.22037070964403e+03
1.31039340385837e+01	1.15069001964003e+02,-1.21194348416043e+03
1.31950791077290e+01	1.14866583406945e+02,-1.20357441853887e+03
1.32868581409652e+01	1.14666950802393e+02,-1.19526311209401e+03
1.33792755478612e+01	1.14470065817284e+02,-1.18700916688658e+03
1.34723357686569e+01	1.14275890645696e+02,-1.17881218770482e+03
1.35660432744768e+01	1.14084388001609e+02,-1.17067178204612e+03
1.36604025675440e+01	1.13895521111765e+02,-1.16258756009870e+03
1.37554181813975e+01	1.13709253708611e+02,-1.15455913472344e+03
1.38510946811093e+01	1.13525550023377e+02,-1.14658612143587e+03
1.39474366635041e+01	1.13344374779203e+02,-1.13866813838818e+03
1.40444487573800e+01	1.13165693184383e+02,-1.13080480635145e+03
1.41421356237310e+01	1.12989470925711e+02,-1.12299574869791e+03
1.42405019559708e+01	1.12815674161896e+02,-1.11524059138337e+03
1.43395524801583e+01	1.12644269517084e+02,-1.10753896292973e+03
1.44392919552250e+01	1.12475224074461e+02,-1.09989049440762e+03
1.45397251732032e+01	1.12308505369943e+02,-1.09229481941918e+03
1.46408569594563e+01	1.12144081385962e+02,-1.08475157408086e+03
1.47426921729111e+01	1.11981920545324e+02,-1.07726039700646e+03
1.48452357062905e+01	1.11821991705160e+02,-1.06982092929015e+03
1.49484924863494e+01	1.11664264150958e+02,-1.06243281448971e+03
1.50524674741107e+01	1.11508707590679e+02,-1.05509569860982e+03
1.51571656651040e+01	1.11355292148942e+02,-1.04780923008545e+03
1.52625920896057e+01	1.11203988361314e+02,-1.04057305976542e+03
1.53687518128802e+01	1.11054767168646e+02,-1.03338684089600e+03
1.54756499354240e+01	1.10907599911508e+02,-1.02625022910461e+03
1.55832915932101e+01	1.10762458324706e+02,-1.01916288238375e+03
1.56916819579351e+01	1.10619314531845e+02,-1.01212446107487e+03
1.58008262372676e+01	1.10478141040004e+02,-1.00513462785244e+03
1.59107296750984e+01	1.10338910734448e+02,-9.98193047708108e+02
1.60213975517925e+01	1.10201596873445e+02,-9.91299387934980e+02
1.61328351844426e+01	1.10066173083130e+02,-9.84453318111950e+02
1.62450479271248e+01	1.09932613352448e+02,-9.77654510088181e+02
1.63580411711557e+01	1.09800892028173e+02,-9.70902637967673e+02
1.64718203453515e+01	1.09670983809985e+02,-9.64197378093928e+02
1.65863909162889e+01	1.09542863745619e+02,-9.57538409034721e+02
1.67017583885675e+01	1.09416507226077e+02,-9.50925411566972e+02
1.68179283050744e+01	1.09291889980920e+02,-9.44358068661712e+02
1.69349062472506e+01	1.09168988073602e+02,-9.37836065469155e+02
1.70526978353592e+01	1.09047777896884e+02,-9.31359089303864e+02
1.71713087287552e+01	1.08928236168314e+02,-9.24926829630014e+02
1.72907446261574e+01	1.08810339925746e+02,-9.18538978046761e+02
1.74110112659226e+01	1.08694066522950e+02,-9.12195228273694e+02
1.75321144263208e+01	1.08579393625265e+02,-9.05895276136396e+02
1.76540599258132e+01	1.08466299205308e+02,-8.99638819552091e+02
1.77768536233315e+01	1.08354761538763e+02,-8.93425558515394e+02
1.79005014185596e+01	1.08244759200199e+02,-8.87255195084148e+02
1.80250092522167e+01	1.08136271058975e+02,-8.81127433365363e+02
1.81503831063433e+01	1.08029276275175e+02,-8.75041979501240e+02
1.82766290045881e+01	1.07923754295615e+02,-8.68998541655292e+02
1.84037530124976e+01	1.07819684849900e+02,-8.62996829998560e+02
1.85317612378075e+01	1.07717047946539e+02,-8.57036556695914e+02
1.86606598307363e+01	1.07615823869102e+02,-8.51117435892450e+02
1.87904549842804e+01	1.07515993172445e+02,-8.45239183699977e+02
1.89211529345120e+01	1.07417536678978e+02,-8.39401518183591e+02
1.90527599608789e+01	1.07320435474978e+02,-8.33604159348341e+02
1.91852823865054e+01	1.07224670906973e+02,-8.27846829125986e+02
1.93187265784970e+01	1.07130224578155e+02,-8.22129251361834e+02
1.94530989482458e+01	1.07037078344851e+02,-8.16451151801672e+02
1.95884059517387e+01	1.06945214313045e+02,-8.10812258078790e+02
1.97246540898673e+01	1.06854614834939e+02,-8.05212299701077e+02
1.98618499087409e+01	1.06765262505573e+02,-7.99651008038218e+02
2.00000000000001e+01	1.06677140159482e+02,-7.94128116308964e+02
2.01391110011345e+01	1.06590230867402e+02,-7.88643359568499e+02
2.02791895958007e+01	1.06504517933022e+02,-7.83196474695884e+02
2.04202425141440e+01	1.06419984889781e+02,-7.77787200381584e+02
2.05622765331215e+01	1.06336615497708e+02,-7.72415277115085e+02
2.07052984768277e+01	1.06254393740302e+02,-7.67080447172587e+02
2.08493152168226e+01	1.06173303821465e+02,-7.61782454604786e+02
2.09943336724615e+01	1.06093330162463e+02,-7.56521045224732e+02
2.11403608112278e+01	1.06014457398942e+02,-7.51295966595771e+02
2.12874036490674e+01	1.05936670377974e+02,-7.46106968019571e+02
2.14354692507260e+01	1.05859954155159e+02,-7.40953800524222e+02
2.15845647300887e+01	1.05784293991740e+02,-7.35836216852421e+02
2.17346972505213e+01	1.05709675351796e+02,-7.30753971449735e+02
2.18858740252150e+01	1.05636083899429e+02,-7.25706820452940e+02
2.20381023175324e+01	1.05563505496028e+02,-7.20694521678444e+02
2.21913894413571e+01	1.05491926197552e+02,-7.15716834610784e+02
2.23457427614446e+01	1.05421332251854e+02,-7.10773520391202e+02
2.25011696937764e+01	1.05351710096032e+02,-7.05864341806292e+02
2.26576777059162e+01	1.05283046353841e+02,-7.00989063276737e+02
2.28152743173687e+01	1.05215327833112e+02,-6.96147450846106e+02
2.29739670999409e+01	1.05148541523232e+02,-6.91339272169739e+02
2.31337636781060e+01	1.05082674592634e+02,-6.86564296503699e+02
2.32946717293693e+01	1.05017714386343e+02,-6.81822294693802e+02
2.34566989846378e+01	1.04953648423539e+02,-6.77113039164722e+02
2.36198532285908e+01	1.04890464395173e+02,-6.72436303909164e+02
2.37841423000546e+01	1.04828150161588e+02,-6.67791864477120e+02
2.39495740923788e+01	1.04766693750203e+02,-6.63179497965185e+02
2.41161565538154e+01	1.04706083353208e+02,-6.58598983005955e+02
2.42838976879012e+01	1.04646307325293e+02,-6.54050099757495e+02
2.44528055538416e+01	1.04587354181423e+02,-6.49532629892872e+02
2.46228882668986e+01	1.04529212594623e+02,-6.45046356589768e+02
2.47941539987800e+01	1.04471871393808e+02,-6.40591064520155e+02
2.49666109780325e+01	1.04415319561642e+02,-6.36166539840045e+02
2.51402674904368e+01	1.04359546232411e+02,-6.31772570179307e+02
2.53151318794059e+01	1.04304540689948e+02,-6.27408944631553e+02
2.54912125463855e+01	1.04250292365573e+02,-6.23075453744097e+02
2.56685179512583e+01	1.04196790836060e+02,-6.18771889507972e+02
2.58470566127501e+01	1.04144025821640e+02,-6.14498045348026e+02
2.60268371088389e+01	1.04091987184026e+02,-6.10253716113078e+02
2.62078680771675e+01	1.04040664924463e+02,-6.06038698066139e+02
2.63901582154582e+01	1.03990049181814e+02,-6.01852788874710e+02
2.65737162819305e+01	1.03940130230662e+02,-5.97695787601133e+02
2.67585510957225e+01	1.03890898479442e+02,-5.93567494693016e+02
2.69446715373141e+01	1.03842344468605e+02,-5.89467711973718e+02
2.71320865489537e+01	1.03794458868796e+02,-5.85396242632904e+02
2.73208051350882e+01	1.03747232479066e+02,-5.81352891217156e+02
2.75108363627952e+01	1.03700656225101e+02,-5.77337463620655e+02
2.77021893622188e+01	1.03654721157483e+02,-5.73349767075927e+02
2.78948733270084e+01	1.03609418449971e+02,-5.69389610144643e+02
2.80888975147603e+01	1.03564739397808e+02,-5.65456802708490e+02
2.82842712474622e+01	1.03520675416042e+02,-5.61551155960102e+02
2.84810039119418e+01	1.03477218037884e+02,-5.57672482394050e+02
2.86791049603169e+01	1.03434358913086e+02,-5.53820595797898e+02
2.88785839104503e+01	1.03392089806323e+02,-5.49995311243313e+02
2.90794503464066e+01	1.03350402595626e+02,-5.46196445077243e+02
2.92817139189129e+01	1.03309289270818e+02,-5.42423814913149e+02
2.94853843458224e+01	1.03268741931969e+02,-5.38677239622301e+02
2.96904714125813e+01	1.03228752787885e+02,-5.34956539325131e+02
2.98969849726991e+01	1.03189314154616e+02,-5.31261535382643e+02
3.01049349482217e+01	1.03150418453971e+02,-5.27592050387888e+02
3.03143313302083e+01	1.03112058212068e+02,-5.23947908157490e+02
3.05251841792116e+01	1.03074226057894e+02,-5.20328933723233e+02
3.07375036257606e+01	1.03036914721895e+02,-5.16734953323704e+02
3.09512998708482e+01	1.03000117034585e+02,-5.13165794395996e+02
3.11665831864204e+01	1.02963825925145e+02,-5.09621285567464e+02
3.13833639158704e+01	1.02928034420096e+02,-5.06101256647538e+02
3.16016524745355e+01	1.02892735641939e+02,-5.02605538619594e+02
3.18214593501972e+01	1.02857922807841e+02,-4.99133963632879e+02
3.20427951035853e+01	1.02823589228332e+02,-4.95686364994489e+02
3.22656703688855e+01	1.02789728306021e+02,-4.92262577161404e+02
3.24900958542498e+01	1.02756333534320e+02,-4.88862435732579e+02
3.27160823423117e+01	1.02723398496212e+02,-4.85485777441085e+02
3.29436406907034e+01	1.02690916863003e+02,-4.82132440146307e+02
3.31727818325781e+01	1.02658882393112e+02,-4.78802262826192e+02
3.34035167771352e+01	1.02627288930870e+02,-4.75495085569556e+02
3.36358566101490e+01	1.02596130405344e+02,-4.72210749568433e+02
3.38698124945015e+01	1.02565400829162e+02,-4.68949097110488e+02
3.41053956707187e+01	1.02535094297369e+02,-4.65709971571474e+02
3.43426174575106e+01	1.02505204986291e+02,-4.62493217407744e+02
3.45814892523151e+01	1.02475727152415e+02,-4.59298680148812e+02
3.48220225318454e+01	1.02446655131290e+02,-4.56126206389969e+02
3.50642288526419e+01	1.02417983336431e+02,-4.52975643784940e+02
3.53081198516267e+01	1.02389706258259e+02,-4.49846841038606e+02
3.55537072466633e+01	1.02361818463026e+02,-4.46739647899762e+02
3.58010028371194e+01	1.02334314591786e+02,-4.43653915153929e+02
3.60500185044337e+01	1.02307189359353e+02,-4.40589494616222e+02
3.63007662126869e+01	1.02280437553303e+02,-4.37546239124256e+02
3.65532580091765e+01	1.02254054032949e+02,-4.34524002531106e+02
3.68075060249955e+01	1.02228033728376e+02,-4.31522639698315e+02
3.70635224756154e+01	1.02202371639454e+02,-4.28542006488953e+02
3.73213196614728e+01	1.02177062834880e+02,-4.25581959760712e+02
3.75809099685610e+01	1.02152102451233e+02,-4.22642357359066e+02
3.78423058690244e+01	1.02127485692039e+02,-4.19723058110460e+02
3.81055199217581e+01	1.02103207826849e+02,-4.16823921815557e+02
3.83705647730111e+01	1.02079264190328e+02,-4.13944809242529e+02
3.86374531569944e+01	1.02055650181366e+02,-4.11085582120390e+02
3.89061978964920e+01	1.02032361262180e+02,-4.08246103132381e+02
3.91768119034777e+01	1.02009392957462e+02,-4.05426235909393e+02
3.94493081797350e+01	1.01986740853505e+02,-4.02625845023442e+02
3.97236998174820e+01	1.01964400597355e+02,-3.99844795981184e+02
4.00000000000006e+01	1.01942367895983e+02,-3.97082955217477e+02
4.02782220022694e+01	1.01920638515452e+02,-3.94340190088986e+02
4.05583791916018e+01	1.01899208280113e+02,-3.91616368867829e+02
4.08404850282884e+01	1.01878073071791e+02,-3.88911360735276e+02
4.11245530662433e+01	1.01857228829007e+02,-3.86225035775477e+02
4.14105969536557e+01	1.01836671546183e+02,-3.83557264969249e+02
4.16986304336455e+01	1.01816397272887e+02,-3.80907920187890e+02
4.19886673449233e+01	1.01796402113061e+02,-3.78276874187045e+02
4.22807216224559e+01	1.01776682224287e+02,-3.75664000600615e+02
4.25748072981351e+01	1.01757233817032e+02,-3.73069173934702e+02
4.28709385014524e+01	1.01738053153937e+02,-3.70492269561597e+02
4.31691294601778e+01	1.01719136549083e+02,-3.67933163713811e+02
4.34693945010430e+01	1.01700480367294e+02,-3.65391733478150e+02
4.37717480504303e+01	1.01682081023436e+02,-3.62867856789821e+02
4.40762046350651e+01	1.01663934981725e+02,-3.60361412426589e+02
4.43827788827145e+01	1.01646038755053e+02,-3.57872280002967e+02
4.46914855228895e+01	1.01628388904314e+02,-3.55400339964452e+02
4.50023393875531e+01	1.01610982037740e+02,-3.52945473581790e+02
4.53153554118327e+01	1.01593814810258e+02,-3.50507562945295e+02
4.56305486347377e+01	1.01576883922845e+02,-3.48086490959194e+02
4.59479341998822e+01	1.01560186121887e+02,-3.45682141336020e+02
4.62675273562123e+01	1.01543718198561e+02,-3.43294398591036e+02
4.65893434587390e+01	1.01527476988217e+02,-3.40923148036705e+02
4.69133979692759e+01	1.01511459369770e+02,-3.38568275777189e+02
4.72397064571820e+01	1.01495662265098e+02,-3.36229668702895e+02
4.75682846001096e+01	1.01480082638454e+02,-3.33907214485051e+02
4.78991481847580e+01	1.01464717495884e+02,-3.31600801570327e+02
4.82323131076312e+01	1.01449563884640e+02,-3.29310319175482e+02
4.85677953758027e+01	1.01434618892630e+02,-3.27035657282059e+02
4.89056111076836e+01	1.01419879647848e+02,-3.24776706631110e+02
4.92457765337975e+01	1.01405343317823e+02,-3.22533358717960e+02
4.95883079975603e+01	1.01391007109078e+02,-3.20305505787001e+02
4.99332219560653e+01	1.01376868266588e+02,-3.18093040826535e+02
5.02805349808740e+01	1.01362924073255e+02,-3.15895857563636e+02
5.06302637588121e+01	1.01349171849391e+02,-3.13713850459060e+02
5.09824250927714e+01	1.01335608952187e+02,-3.11546914702184e+02
5.13370359025171e+01	1.01322232775225e+02,-3.09394946205981e+02
5.16941132255006e+01	1.01309040747962e+02,-3.07257841602029e+02
5.20536742176783e+01	1.01296030335240e+02,-3.05135498235558e+02
5.24157361543355e+01	1.01283199036805e+02,-3.03027814160524e+02
5.27803164309167e+01	1.01270544386819e+02,-3.00934688134724e+02
5.31474325638614e+01	1.01258063953392e+02,-2.98856019614938e+02
5.35171021914455e+01	1.01245755338110e+02,-2.96791708752112e+02
5.38893430746286e+01	1.01233616175577e+02,-2.94741656386568e+02
5.42641730979079e+01	1.01221644132960e+02,-2.92705764043249e+02
5.46416102701768e+01	1.01209836909538e+02,-2.90683933926997e+02
5.50216727255908e+01	1.01198192236264e+02,-2.88676068917863e+02
5.54043787244380e+01	1.01186707875331e+02,-2.86682072566448e+02
5.57897466540173e+01	1.01175381619733e+02,-2.84701849089281e+02
5.61777950295209e+01	1.01164211292850e+02,-2.82735303364222e+02
5.65685424949249e+01	1.01153194748021e+02,-2.80782340925902e+02
5.69620078238839e+01	1.01142329868145e+02,-2.78842867961189e+02
5.73582099206342e+01	1.01131614565256e+02,-2.76916791304693e+02
5.77571678209009e+01	1.01121046780143e+02,-2.75004018434294e+02
5.81589006928135e+01	1.01110624481931e+02,-2.73104457466707e+02
5.85634278378261e+01	1.01100345667712e+02,-2.71218017153070e+02
5.89707686916452e+01	1.01090208362147e+02,-2.69344606874574e+02
5.93809428251631e+01	1.01080210617088e+02,-2.67484136638108e+02
5.97939699453987e+01	1.01070350511214e+02,-2.65636517071949e+02
6.02098698964438e+01	1.01060626149645e+02,-2.63801659421472e+02
6.06286626604171e+01	1.01051035663590e+02,-2.61979475544891e+02
6.10503683584235e+01	1.01041577209986e+02,-2.60169877909033e+02
6.14750072515217e+01	1.01032248971142e+02,-2.58372779585138e+02
6.19025997416968e+01	1.01023049154388e+02,-2.56588094244687e+02
6.23331663728412e+01	1.01013975991735e+02,-2.54815736155262e+02
6.27667278317413e+01	1.01005027739534e+02,-2.53055620176433e+02
6.32033049490714e+01	1.00996202678134e+02,-2.51307661755674e+02
6.36429187003948e+01	1.00987499111566e+02,-2.49571776924302e+02
6.40855902071710e+01	1.00978915367204e+02,-2.47847882293454e+02
6.45313407377714e+01	1.00970449795444e+02,-2.46135895050082e+02
6.49801917085001e+01	1.00962100769402e+02,-2.44435732952980e+02
6.54321646846238e+01	1.00953866684581e+02,-2.42747314328839e+02
6.58872813814072e+01	1.00945745958575e+02,-2.41070558068330e+02
6.63455636651567e+01	1.00937737030766e+02,-2.39405383622206e+02
6.68070335542709e+01	1.00929838362016e+02,-2.37751710997444e+02
6.72717132202985e+01	1.00922048434376e+02,-2.36109460753400e+02
6.77396249890036e+01	1.00914365750796e+02,-2.34478553998004e+02
6.82107913414379e+01	1.00906788834833e+02,-2.32858912383967e+02
6.86852349150217e+01	1.00899316230373e+02,-2.31250458105026e+02
6.91629785046307e+01	1.00891946501342e+02,-2.29653113892208e+02
6.96440450636914e+01	1.00884678231443e+02,-2.28066803010123e+02
7.01284577052843e+01	1.00877510023870e+02,-2.26491449253282e+02
7.06162397032539e+01	1.00870440501049e+02,-2.24926976942438e+02
7.11074144933271e+01	1.00863468304374e+02,-2.23373310920954e+02
7.16020056742393e+01	1.00856592093933e+02,-2.21830376551199e+02
7.21000370088680e+01	1.00849810548271e+02,-2.20298099710963e+02
7.26015324253744e+01	1.00843122364116e+02,-2.18776406789899e+02
7.31065160183536e+01	1.00836526256145e+02,-2.17265224685995e+02
7.36150120499916e+01	1.00830020956722e+02,-2.15764480802058e+02
7.41270449512313e+01	1.00823605215670e+02,-2.14274103042237e+02
7.46426393229462e+01	1.00817277800016e+02,-2.12794019808556e+02
7.51618199371226e+01	1.00811037493763e+02,-2.11324159997485e+02
7.56846117380493e+01	1.00804883097658e+02,-2.09864452996518e+02
7.62110398435167e+01	1.00798813428951e+02,-2.08414828680792e+02
7.67411295460228e+01	1.00792827321180e+02,-2.06975217409717e+02
7.72749063139893e+01	1.00786923623937e+02,-2.05545550023634e+02
7.78123957929846e+01	1.00781101202654e+02,-2.04125757840493e+02
7.83536238069559e+01	1.00775358938384e+02,-2.02715772652561e+02
7.88986163594705e+01	1.00769695727578e+02,-2.01315526723145e+02
7.94473996349646e+01	1.00764110481883e+02,-1.99924952783339e+02
8.00000000000018e+01	1.00758602127930e+02,-1.98543984028798e+02
8.05564440045393e+01	1.00753169607126e+02,-1.97172554116530e+02
8.11167583832042e+01	1.00747811875448e+02,-1.95810597161710e+02
8.16809700565773e+01	1.00742527903248e+02,-1.94458047734518e+02
8.22491061324872e+01	1.00737316675056e+02,-1.93114840857001e+02
8.28211939073121e+01	1.00732177189378e+02,-1.91780911999947e+02
8.33972608672916e+01	1.00727108458503e+02,-1.90456197079794e+02
8.39773346898473e+01	1.00722109508327e+02,-1.89140632455550e+02
8.45614432449124e+01	1.00717179378150e+02,-1.87834154925737e+02
8.51496145962708e+01	1.00712317120497e+02,-1.86536701725360e+02
8.57418770029054e+01	1.00707521800941e+02,-1.85248210522891e+02
8.63382589203562e+01	1.00702792497913e+02,-1.83968619417279e+02
